Open()
SkipNoise()
EnqueueHoldingRead()
>> 2A 03 01 22 00 0C E2 22
<< 2A 03 18 00 77 00 62 00 6C 00 65 00 64 00 00 00 00 00 00 00 00 00 00 00 00 00 00 F0 32
EnqueueHoldingRead()
>> 2A 03 00 FA 00 10 62 2C
<< 2A 03 20 00 33 00 2E 00 36 00 2E 00 31 00 00 00 00 00 00 00 00 00 00 00 00 00 00 00 00 00 00 00 00 00 00 78 16
EnqueueHoldingRead()
>> 2A 03 01 4A 00 07 22 39
<< 2A 03 0E 00 31 00 2E 00 35 00 2E 00 30 00 00 00 00 B8 E3
EnqueueHoldingRead()
>> 2A 03 00 83 00 01 73 F9
<< 2A 03 02 00 00 9C 42
EnqueueHoldingRead()
>> 2A 03 00 C8 00 14 C2 20
<< 2A 03 28 00 57 00 42 00 2D 00 4C 00 45 00 44 00 00 00 00 00 00 00 00 00 00 00 00 00 00 00 00 00 00 00 00 00 00 00 00 00 00 00 00 B2 03
EnqueueDiscreteReadException()
>> 2A 02 FE 80 00 08 4F D7
<< 2A 82 02 B1 69
EnqueueWriteSingleRegister()
>> 2A 06 00 83 00 01 BF F9
<< 2A 06 00 83 00 01 BF F9
EnqueueWriteMultipleRegisters()
>> 2A 10 10 00 00 10 20 BB BB BB BB BB BB BB BB BB BB BB BB BB BB BB BB BB BB BB BB BB BB BB BB BB BB BB BB BB BB BB BB F6 70
