Open()
SkipNoise()
EnqueueHoldingRead()
>> 2A 03 01 22 00 0C E2 22
<< 2A 03 18 00 74 00 65 00 73 00 74 00 00 00 00 00 00 00 00 00 00 00 00 00 00 00 00 79 C8
EnqueueHoldingRead()
>> 2A 03 00 FA 00 10 62 2C
<< 2A 03 20 00 31 00 2E 00 30 00 2E 00 30 00 00 00 00 00 00 00 00 00 00 00 00 00 00 00 00 00 00 00 00 00 00 95 85
EnqueueHoldingReadException()
>> 2A 03 01 4A 00 07 22 39
<< 2A 83 02 B0 F9
EnqueueHoldingReadException()
>> 2A 03 00 83 00 01 73 F9
<< 2A 83 02 B0 F9
EnqueueHoldingRead()
>> 2A 03 00 C8 00 14 C2 20
<< 2A 03 28 00 54 00 45 00 53 00 54 00 00 00 00 00 00 00 00 00 00 00 00 00 00 00 00 00 00 00 00 00 00 00 00 00 00 00 00 00 00 00 00 3F 1E
EnqueueDiscreteRead()
>> 2A 02 FE 80 00 08 4F D7
<< 2A 02 01 01 69 AC
ComponentReadException()
>> 2A 04 FD 14 00 0C 87 BC
<< 2A 84 02 B2 C9
