Open()
SkipNoise()
EnqueueHoldingRead()
>> 2A 03 01 22 00 0C E2 22
<< 2A 03 18 00 77 00 62 00 6D 00 77 00 61 00 63 00 00 00 00 00 00 00 00 00 00 00 00 20 0B
EnqueueHoldingRead()
>> 2A 03 00 FA 00 10 62 2C
<< 2A 03 20 00 32 00 2E 00 30 00 2E 00 30 00 00 00 00 00 00 00 00 00 00 00 00 00 00 00 00 00 00 00 00 00 00 25 84
EnqueueHoldingRead()
>> 2A 03 01 4A 00 07 22 39
<< 2A 03 0E 00 31 00 2E 00 30 00 2E 00 30 00 00 00 00 87 B3
EnqueueHoldingRead()
>> 2A 03 00 83 00 01 73 F9
<< 2A 03 02 00 00 9C 42
EnqueueHoldingRead()
>> 2A 03 00 C8 00 14 C2 20
<< 2A 03 28 00 57 00 42 00 4D 00 57 00 41 00 43 00 2D 00 76 00 32 00 00 00 00 00 00 00 00 00 00 00 00 00 00 00 00 00 00 00 00 00 00 DE 5F
EnqueueDiscreteRead()
>> 2A 02 FE 80 00 08 4F D7
<< 2A 02 01 01 69 AC
EnqueueInputRead()
>> 2A 04 FD 14 00 0C 87 BC
<< 2A 04 18 00 77 00 62 00 6D 00 77 00 61 00 63 00 5F 00 6F 00 63 00 00 00 00 00 00 45 95
EnqueueInputRead()
>> 2A 04 FD 20 00 10 C7 BB
<< 2A 04 20 00 31 00 2E 00 30 00 2E 00 30 00 00 00 00 00 00 00 00 00 00 00 00 00 00 00 00 00 00 00 00 00 00 94 86
EnqueueInputRead()
>> 2A 04 FD 00 00 14 C7 B2
<< 2A 04 28 00 57 00 42 00 4D 00 57 00 41 00 43 00 2D 00 4F 00 43 00 00 00 00 00 00 00 00 00 00 00 00 00 00 00 00 00 00 00 00 00 00 83 65
