Subscribe: /devices/+/meta/driver (QoS 0)
Publish: /devices/modbus-sample/meta: '{"driver":"em-test","title":{"en":"Modbus-sample"}}' (QoS 1, retained)
Publish: /devices/modbus-sample/meta/driver: 'em-test' (QoS 1, retained)
Publish: /devices/modbus-sample/meta/error: '' (QoS 1, retained)
Publish: /devices/modbus-sample/meta/name: 'Modbus-sample' (QoS 1, retained)
Publish: /devices/modbus-sample/controls/R1/meta: '{"order":1,"readonly":false,"type":"value"}' (QoS 1, retained)
Publish: /devices/modbus-sample/controls/R1/meta/error: '' (QoS 1, retained)
Publish: /devices/modbus-sample/controls/R1/meta/order: '1' (QoS 1, retained)
Publish: /devices/modbus-sample/controls/R1/meta/readonly: '0' (QoS 1, retained)
Publish: /devices/modbus-sample/controls/R1/meta/type: 'value' (QoS 1, retained)
Publish: /devices/modbus-sample/controls/R1: '0' (QoS 1, retained)
Subscribe: /devices/modbus-sample/controls/R1/on (QoS 0)
Publish: /devices/modbus-sample/controls/R2/meta: '{"order":2,"readonly":false,"type":"value"}' (QoS 1, retained)
Publish: /devices/modbus-sample/controls/R2/meta/error: '' (QoS 1, retained)
Publish: /devices/modbus-sample/controls/R2/meta/order: '2' (QoS 1, retained)
Publish: /devices/modbus-sample/controls/R2/meta/readonly: '0' (QoS 1, retained)
Publish: /devices/modbus-sample/controls/R2/meta/type: 'value' (QoS 1, retained)
Publish: /devices/modbus-sample/controls/R2: '0' (QoS 1, retained)
Subscribe: /devices/modbus-sample/controls/R2/on (QoS 0)
Publish: /devices/modbus-sample/controls/R3/meta: '{"order":3,"readonly":false,"type":"value"}' (QoS 1, retained)
Publish: /devices/modbus-sample/controls/R3/meta/error: '' (QoS 1, retained)
Publish: /devices/modbus-sample/controls/R3/meta/order: '3' (QoS 1, retained)
Publish: /devices/modbus-sample/controls/R3/meta/readonly: '0' (QoS 1, retained)
Publish: /devices/modbus-sample/controls/R3/meta/type: 'value' (QoS 1, retained)
Publish: /devices/modbus-sample/controls/R3: '0' (QoS 1, retained)
Subscribe: /devices/modbus-sample/controls/R3/on (QoS 0)
Publish: /devices/modbus-sample/controls/C1/meta: '{"order":4,"readonly":false,"type":"switch"}' (QoS 1, retained)
Publish: /devices/modbus-sample/controls/C1/meta/error: '' (QoS 1, retained)
Publish: /devices/modbus-sample/controls/C1/meta/order: '4' (QoS 1, retained)
Publish: /devices/modbus-sample/controls/C1/meta/readonly: '0' (QoS 1, retained)
Publish: /devices/modbus-sample/controls/C1/meta/type: 'switch' (QoS 1, retained)
Publish: /devices/modbus-sample/controls/C1: '0' (QoS 1, retained)
Subscribe: /devices/modbus-sample/controls/C1/on (QoS 0)
Publish: /devices/modbus-sample/controls/C2/meta: '{"order":5,"readonly":false,"type":"switch"}' (QoS 1, retained)
Publish: /devices/modbus-sample/controls/C2/meta/error: '' (QoS 1, retained)
Publish: /devices/modbus-sample/controls/C2/meta/order: '5' (QoS 1, retained)
Publish: /devices/modbus-sample/controls/C2/meta/readonly: '0' (QoS 1, retained)
Publish: /devices/modbus-sample/controls/C2/meta/type: 'switch' (QoS 1, retained)
Publish: /devices/modbus-sample/controls/C2: '0' (QoS 1, retained)
Subscribe: /devices/modbus-sample/controls/C2/on (QoS 0)
Publish: /devices/modbus-sample/controls/C3/meta: '{"order":6,"readonly":false,"type":"switch"}' (QoS 1, retained)
Publish: /devices/modbus-sample/controls/C3/meta/error: '' (QoS 1, retained)
Publish: /devices/modbus-sample/controls/C3/meta/order: '6' (QoS 1, retained)
Publish: /devices/modbus-sample/controls/C3/meta/readonly: '0' (QoS 1, retained)
Publish: /devices/modbus-sample/controls/C3/meta/type: 'switch' (QoS 1, retained)
Publish: /devices/modbus-sample/controls/C3: '0' (QoS 1, retained)
Subscribe: /devices/modbus-sample/controls/C3/on (QoS 0)
Subscribe: /devices/modbus-sample/controls/# (QoS 0)
(retain) -> /devices/modbus-sample/controls/C1: '0' (QoS 1, retained)
(retain) -> /devices/modbus-sample/controls/C1/meta: '{"order":4,"readonly":false,"type":"switch"}' (QoS 1, retained)
(retain) -> /devices/modbus-sample/controls/C1/meta/order: '4' (QoS 1, retained)
(retain) -> /devices/modbus-sample/controls/C1/meta/readonly: '0' (QoS 1, retained)
(retain) -> /devices/modbus-sample/controls/C1/meta/type: 'switch' (QoS 1, retained)
(retain) -> /devices/modbus-sample/controls/C2: '0' (QoS 1, retained)
(retain) -> /devices/modbus-sample/controls/C2/meta: '{"order":5,"readonly":false,"type":"switch"}' (QoS 1, retained)
(retain) -> /devices/modbus-sample/controls/C2/meta/order: '5' (QoS 1, retained)
(retain) -> /devices/modbus-sample/controls/C2/meta/readonly: '0' (QoS 1, retained)
(retain) -> /devices/modbus-sample/controls/C2/meta/type: 'switch' (QoS 1, retained)
(retain) -> /devices/modbus-sample/controls/C3: '0' (QoS 1, retained)
(retain) -> /devices/modbus-sample/controls/C3/meta: '{"order":6,"readonly":false,"type":"switch"}' (QoS 1, retained)
(retain) -> /devices/modbus-sample/controls/C3/meta/order: '6' (QoS 1, retained)
(retain) -> /devices/modbus-sample/controls/C3/meta/readonly: '0' (QoS 1, retained)
(retain) -> /devices/modbus-sample/controls/C3/meta/type: 'switch' (QoS 1, retained)
(retain) -> /devices/modbus-sample/controls/R1: '0' (QoS 1, retained)
(retain) -> /devices/modbus-sample/controls/R1/meta: '{"order":1,"readonly":false,"type":"value"}' (QoS 1, retained)
(retain) -> /devices/modbus-sample/controls/R1/meta/order: '1' (QoS 1, retained)
(retain) -> /devices/modbus-sample/controls/R1/meta/readonly: '0' (QoS 1, retained)
(retain) -> /devices/modbus-sample/controls/R1/meta/type: 'value' (QoS 1, retained)
(retain) -> /devices/modbus-sample/controls/R2: '0' (QoS 1, retained)
(retain) -> /devices/modbus-sample/controls/R2/meta: '{"order":2,"readonly":false,"type":"value"}' (QoS 1, retained)
(retain) -> /devices/modbus-sample/controls/R2/meta/order: '2' (QoS 1, retained)
(retain) -> /devices/modbus-sample/controls/R2/meta/readonly: '0' (QoS 1, retained)
(retain) -> /devices/modbus-sample/controls/R2/meta/type: 'value' (QoS 1, retained)
(retain) -> /devices/modbus-sample/controls/R3: '0' (QoS 1, retained)
(retain) -> /devices/modbus-sample/controls/R3/meta: '{"order":3,"readonly":false,"type":"value"}' (QoS 1, retained)
(retain) -> /devices/modbus-sample/controls/R3/meta/order: '3' (QoS 1, retained)
(retain) -> /devices/modbus-sample/controls/R3/meta/readonly: '0' (QoS 1, retained)
(retain) -> /devices/modbus-sample/controls/R3/meta/type: 'value' (QoS 1, retained)
Unsubscribe -- em-test: /devices/modbus-sample/controls/#
>>> LoopOnce() [one by one]
Open()
Sleep(5000)
EnqueueContinuousReadEnableResponse()
>> 01 06 00 72 00 01 E8 11
<< 01 86 02 C3 A1
EnqueueContinuousReadHoldingResponse()
>> 01 03 00 01 00 01 D5 CA
<< 01 03 02 00 00 B8 44
Publish: /devices/modbus-sample/controls/R1: '0' (QoS 1, retained)
EnqueueContinuousReadHoldingResponse()
>> 01 03 00 08 00 01 05 C8
<< 01 03 02 00 01 79 84
Publish: /devices/modbus-sample/controls/R2: '1' (QoS 1, retained)
EnqueueContinuousReadHoldingResponse()
>> 01 03 00 14 00 01 C4 0E
<< 01 03 02 00 02 39 85
Publish: /devices/modbus-sample/controls/R3: '2' (QoS 1, retained)
EnqueueContinuousReadCoilResponse()
>> 01 01 00 01 00 01 AC 0A
<< 01 01 01 01 90 48
Publish: /devices/modbus-sample/controls/C1: '1' (QoS 1, retained)
EnqueueContinuousReadCoilResponse()
>> 01 01 00 46 00 01 1C 1F
<< 01 01 01 01 90 48
Publish: /devices/modbus-sample/controls/C2: '1' (QoS 1, retained)
EnqueueContinuousReadCoilResponse()
>> 01 01 00 AA 00 01 DD EA
<< 01 01 01 01 90 48
Publish: /devices/modbus-sample/controls/C3: '1' (QoS 1, retained)
>>> LoopOnce() [separated]
EnqueueContinuousReadHoldingResponse()
>> 01 03 00 01 00 01 D5 CA
<< 01 03 02 00 00 B8 44
EnqueueContinuousReadHoldingResponse()
>> 01 03 00 08 00 01 05 C8
<< 01 03 02 00 01 79 84
EnqueueContinuousReadHoldingResponse()
>> 01 03 00 14 00 01 C4 0E
<< 01 03 02 00 02 39 85
EnqueueContinuousReadCoilResponse()
>> 01 01 00 01 00 01 AC 0A
<< 01 01 01 01 90 48
EnqueueContinuousReadCoilResponse()
>> 01 01 00 46 00 01 1C 1F
<< 01 01 01 01 90 48
EnqueueContinuousReadCoilResponse()
>> 01 01 00 AA 00 01 DD EA
<< 01 01 01 01 90 48
Unsubscribe -- em-test: /devices/modbus-sample/controls/C2/on
Publish: /devices/modbus-sample/controls/C2/meta: '' (QoS 1, retained)
Publish: /devices/modbus-sample/controls/C2/meta/order: '' (QoS 1, retained)
Publish: /devices/modbus-sample/controls/C2/meta/readonly: '' (QoS 1, retained)
Publish: /devices/modbus-sample/controls/C2/meta/type: '' (QoS 1, retained)
Publish: /devices/modbus-sample/controls/C2: '' (QoS 1, retained)
Unsubscribe -- em-test: /devices/modbus-sample/controls/C1/on
Publish: /devices/modbus-sample/controls/C1/meta: '' (QoS 1, retained)
Publish: /devices/modbus-sample/controls/C1/meta/order: '' (QoS 1, retained)
Publish: /devices/modbus-sample/controls/C1/meta/readonly: '' (QoS 1, retained)
Publish: /devices/modbus-sample/controls/C1/meta/type: '' (QoS 1, retained)
Publish: /devices/modbus-sample/controls/C1: '' (QoS 1, retained)
Unsubscribe -- em-test: /devices/modbus-sample/controls/R3/on
Publish: /devices/modbus-sample/controls/R3/meta: '' (QoS 1, retained)
Publish: /devices/modbus-sample/controls/R3/meta/order: '' (QoS 1, retained)
Publish: /devices/modbus-sample/controls/R3/meta/readonly: '' (QoS 1, retained)
Publish: /devices/modbus-sample/controls/R3/meta/type: '' (QoS 1, retained)
Publish: /devices/modbus-sample/controls/R3: '' (QoS 1, retained)
Unsubscribe -- em-test: /devices/modbus-sample/controls/R2/on
Publish: /devices/modbus-sample/controls/R2/meta: '' (QoS 1, retained)
Publish: /devices/modbus-sample/controls/R2/meta/order: '' (QoS 1, retained)
Publish: /devices/modbus-sample/controls/R2/meta/readonly: '' (QoS 1, retained)
Publish: /devices/modbus-sample/controls/R2/meta/type: '' (QoS 1, retained)
Publish: /devices/modbus-sample/controls/R2: '' (QoS 1, retained)
Unsubscribe -- em-test: /devices/modbus-sample/controls/C3/on
Publish: /devices/modbus-sample/controls/C3/meta: '' (QoS 1, retained)
Publish: /devices/modbus-sample/controls/C3/meta/order: '' (QoS 1, retained)
Publish: /devices/modbus-sample/controls/C3/meta/readonly: '' (QoS 1, retained)
Publish: /devices/modbus-sample/controls/C3/meta/type: '' (QoS 1, retained)
Publish: /devices/modbus-sample/controls/C3: '' (QoS 1, retained)
Unsubscribe -- em-test: /devices/modbus-sample/controls/R1/on
Publish: /devices/modbus-sample/controls/R1/meta: '' (QoS 1, retained)
Publish: /devices/modbus-sample/controls/R1/meta/order: '' (QoS 1, retained)
Publish: /devices/modbus-sample/controls/R1/meta/readonly: '' (QoS 1, retained)
Publish: /devices/modbus-sample/controls/R1/meta/type: '' (QoS 1, retained)
Publish: /devices/modbus-sample/controls/R1: '' (QoS 1, retained)
Publish: /devices/modbus-sample/meta: '' (QoS 1, retained)
Publish: /devices/modbus-sample/meta/driver: '' (QoS 1, retained)
Publish: /devices/modbus-sample/meta/name: '' (QoS 1, retained)
stop: em-test
