Subscribe: /devices/+/meta/driver (QoS 0)
Publish: /devices/modbus-sample/meta: '{"driver":"em-test","title":{"en":"Modbus-sample"}}' (QoS 1, retained)
Publish: /devices/modbus-sample/meta/driver: 'em-test' (QoS 1, retained)
Publish: /devices/modbus-sample/meta/error: '' (QoS 1, retained)
Publish: /devices/modbus-sample/meta/name: 'Modbus-sample' (QoS 1, retained)
Publish: /devices/modbus-sample/controls/U8/meta: '{"order":1,"readonly":false,"type":"value"}' (QoS 1, retained)
Publish: /devices/modbus-sample/controls/U8/meta/error: '' (QoS 1, retained)
Publish: /devices/modbus-sample/controls/U8/meta/order: '1' (QoS 1, retained)
Publish: /devices/modbus-sample/controls/U8/meta/readonly: '0' (QoS 1, retained)
Publish: /devices/modbus-sample/controls/U8/meta/type: 'value' (QoS 1, retained)
Publish: /devices/modbus-sample/controls/U8: '0' (QoS 1, retained)
Subscribe: /devices/modbus-sample/controls/U8/on (QoS 0)
Publish: /devices/modbus-sample/controls/U16/meta: '{"order":2,"readonly":false,"type":"value"}' (QoS 1, retained)
Publish: /devices/modbus-sample/controls/U16/meta/error: '' (QoS 1, retained)
Publish: /devices/modbus-sample/controls/U16/meta/order: '2' (QoS 1, retained)
Publish: /devices/modbus-sample/controls/U16/meta/readonly: '0' (QoS 1, retained)
Publish: /devices/modbus-sample/controls/U16/meta/type: 'value' (QoS 1, retained)
Publish: /devices/modbus-sample/controls/U16: '0' (QoS 1, retained)
Subscribe: /devices/modbus-sample/controls/U16/on (QoS 0)
Publish: /devices/modbus-sample/controls/U24/meta: '{"order":3,"readonly":false,"type":"value"}' (QoS 1, retained)
Publish: /devices/modbus-sample/controls/U24/meta/error: '' (QoS 1, retained)
Publish: /devices/modbus-sample/controls/U24/meta/order: '3' (QoS 1, retained)
Publish: /devices/modbus-sample/controls/U24/meta/readonly: '0' (QoS 1, retained)
Publish: /devices/modbus-sample/controls/U24/meta/type: 'value' (QoS 1, retained)
Publish: /devices/modbus-sample/controls/U24: '0' (QoS 1, retained)
Subscribe: /devices/modbus-sample/controls/U24/on (QoS 0)
Publish: /devices/modbus-sample/controls/U32/meta: '{"order":4,"readonly":false,"type":"value"}' (QoS 1, retained)
Publish: /devices/modbus-sample/controls/U32/meta/error: '' (QoS 1, retained)
Publish: /devices/modbus-sample/controls/U32/meta/order: '4' (QoS 1, retained)
Publish: /devices/modbus-sample/controls/U32/meta/readonly: '0' (QoS 1, retained)
Publish: /devices/modbus-sample/controls/U32/meta/type: 'value' (QoS 1, retained)
Publish: /devices/modbus-sample/controls/U32: '0' (QoS 1, retained)
Subscribe: /devices/modbus-sample/controls/U32/on (QoS 0)
Publish: /devices/modbus-sample/controls/U64/meta: '{"order":5,"readonly":false,"type":"value"}' (QoS 1, retained)
Publish: /devices/modbus-sample/controls/U64/meta/error: '' (QoS 1, retained)
Publish: /devices/modbus-sample/controls/U64/meta/order: '5' (QoS 1, retained)
Publish: /devices/modbus-sample/controls/U64/meta/readonly: '0' (QoS 1, retained)
Publish: /devices/modbus-sample/controls/U64/meta/type: 'value' (QoS 1, retained)
Publish: /devices/modbus-sample/controls/U64: '0' (QoS 1, retained)
Subscribe: /devices/modbus-sample/controls/U64/on (QoS 0)
Publish: /devices/modbus-sample/controls/FloatLE/meta: '{"order":6,"readonly":false,"type":"value"}' (QoS 1, retained)
Publish: /devices/modbus-sample/controls/FloatLE/meta/error: '' (QoS 1, retained)
Publish: /devices/modbus-sample/controls/FloatLE/meta/order: '6' (QoS 1, retained)
Publish: /devices/modbus-sample/controls/FloatLE/meta/readonly: '0' (QoS 1, retained)
Publish: /devices/modbus-sample/controls/FloatLE/meta/type: 'value' (QoS 1, retained)
Publish: /devices/modbus-sample/controls/FloatLE: '0' (QoS 1, retained)
Subscribe: /devices/modbus-sample/controls/FloatLE/on (QoS 0)
Publish: /devices/modbus-sample/controls/StringLE/meta: '{"order":7,"readonly":false,"type":"text"}' (QoS 1, retained)
Publish: /devices/modbus-sample/controls/StringLE/meta/error: '' (QoS 1, retained)
Publish: /devices/modbus-sample/controls/StringLE/meta/order: '7' (QoS 1, retained)
Publish: /devices/modbus-sample/controls/StringLE/meta/readonly: '0' (QoS 1, retained)
Publish: /devices/modbus-sample/controls/StringLE/meta/type: 'text' (QoS 1, retained)
Publish: /devices/modbus-sample/controls/StringLE: '' (QoS 1, retained)
Subscribe: /devices/modbus-sample/controls/StringLE/on (QoS 0)
Publish: /devices/modbus-sample/controls/String8LE/meta: '{"order":8,"readonly":false,"type":"text"}' (QoS 1, retained)
Publish: /devices/modbus-sample/controls/String8LE/meta/error: '' (QoS 1, retained)
Publish: /devices/modbus-sample/controls/String8LE/meta/order: '8' (QoS 1, retained)
Publish: /devices/modbus-sample/controls/String8LE/meta/readonly: '0' (QoS 1, retained)
Publish: /devices/modbus-sample/controls/String8LE/meta/type: 'text' (QoS 1, retained)
Publish: /devices/modbus-sample/controls/String8LE: '' (QoS 1, retained)
Subscribe: /devices/modbus-sample/controls/String8LE/on (QoS 0)
Subscribe: /devices/modbus-sample/controls/# (QoS 0)
(retain) -> /devices/modbus-sample/controls/FloatLE: '0' (QoS 1, retained)
(retain) -> /devices/modbus-sample/controls/FloatLE/meta: '{"order":6,"readonly":false,"type":"value"}' (QoS 1, retained)
(retain) -> /devices/modbus-sample/controls/FloatLE/meta/order: '6' (QoS 1, retained)
(retain) -> /devices/modbus-sample/controls/FloatLE/meta/readonly: '0' (QoS 1, retained)
(retain) -> /devices/modbus-sample/controls/FloatLE/meta/type: 'value' (QoS 1, retained)
(retain) -> /devices/modbus-sample/controls/String8LE/meta: '{"order":8,"readonly":false,"type":"text"}' (QoS 1, retained)
(retain) -> /devices/modbus-sample/controls/String8LE/meta/order: '8' (QoS 1, retained)
(retain) -> /devices/modbus-sample/controls/String8LE/meta/readonly: '0' (QoS 1, retained)
(retain) -> /devices/modbus-sample/controls/String8LE/meta/type: 'text' (QoS 1, retained)
(retain) -> /devices/modbus-sample/controls/StringLE/meta: '{"order":7,"readonly":false,"type":"text"}' (QoS 1, retained)
(retain) -> /devices/modbus-sample/controls/StringLE/meta/order: '7' (QoS 1, retained)
(retain) -> /devices/modbus-sample/controls/StringLE/meta/readonly: '0' (QoS 1, retained)
(retain) -> /devices/modbus-sample/controls/StringLE/meta/type: 'text' (QoS 1, retained)
(retain) -> /devices/modbus-sample/controls/U16: '0' (QoS 1, retained)
(retain) -> /devices/modbus-sample/controls/U16/meta: '{"order":2,"readonly":false,"type":"value"}' (QoS 1, retained)
(retain) -> /devices/modbus-sample/controls/U16/meta/order: '2' (QoS 1, retained)
(retain) -> /devices/modbus-sample/controls/U16/meta/readonly: '0' (QoS 1, retained)
(retain) -> /devices/modbus-sample/controls/U16/meta/type: 'value' (QoS 1, retained)
(retain) -> /devices/modbus-sample/controls/U24: '0' (QoS 1, retained)
(retain) -> /devices/modbus-sample/controls/U24/meta: '{"order":3,"readonly":false,"type":"value"}' (QoS 1, retained)
(retain) -> /devices/modbus-sample/controls/U24/meta/order: '3' (QoS 1, retained)
(retain) -> /devices/modbus-sample/controls/U24/meta/readonly: '0' (QoS 1, retained)
(retain) -> /devices/modbus-sample/controls/U24/meta/type: 'value' (QoS 1, retained)
(retain) -> /devices/modbus-sample/controls/U32: '0' (QoS 1, retained)
(retain) -> /devices/modbus-sample/controls/U32/meta: '{"order":4,"readonly":false,"type":"value"}' (QoS 1, retained)
(retain) -> /devices/modbus-sample/controls/U32/meta/order: '4' (QoS 1, retained)
(retain) -> /devices/modbus-sample/controls/U32/meta/readonly: '0' (QoS 1, retained)
(retain) -> /devices/modbus-sample/controls/U32/meta/type: 'value' (QoS 1, retained)
(retain) -> /devices/modbus-sample/controls/U64: '0' (QoS 1, retained)
(retain) -> /devices/modbus-sample/controls/U64/meta: '{"order":5,"readonly":false,"type":"value"}' (QoS 1, retained)
(retain) -> /devices/modbus-sample/controls/U64/meta/order: '5' (QoS 1, retained)
(retain) -> /devices/modbus-sample/controls/U64/meta/readonly: '0' (QoS 1, retained)
(retain) -> /devices/modbus-sample/controls/U64/meta/type: 'value' (QoS 1, retained)
(retain) -> /devices/modbus-sample/controls/U8: '0' (QoS 1, retained)
(retain) -> /devices/modbus-sample/controls/U8/meta: '{"order":1,"readonly":false,"type":"value"}' (QoS 1, retained)
(retain) -> /devices/modbus-sample/controls/U8/meta/order: '1' (QoS 1, retained)
(retain) -> /devices/modbus-sample/controls/U8/meta/readonly: '0' (QoS 1, retained)
(retain) -> /devices/modbus-sample/controls/U8/meta/type: 'value' (QoS 1, retained)
Unsubscribe -- em-test: /devices/modbus-sample/controls/#
Open()
Sleep(5000)
EnqueueLittleEndianReadResponses()
>> 01 03 00 01 00 01 D5 CA
<< 01 03 02 EE 02 74 25
Publish: /devices/modbus-sample/controls/U8: '2' (QoS 1, retained)
EnqueueLittleEndianReadResponses()
>> 01 03 00 02 00 01 25 CA
<< 01 03 02 01 02 38 15
Publish: /devices/modbus-sample/controls/U16: '258' (QoS 1, retained)
EnqueueLittleEndianReadResponses()
>> 01 03 00 03 00 02 34 0B
<< 01 03 04 01 02 EE 03 57 AE
Publish: /devices/modbus-sample/controls/U24: '196866' (QoS 1, retained)
EnqueueLittleEndianReadResponses()
>> 01 03 00 06 00 02 24 0A
<< 01 03 04 01 02 03 04 5B 3C
Publish: /devices/modbus-sample/controls/U32: '50594050' (QoS 1, retained)
EnqueueLittleEndianReadResponses()
>> 01 03 00 0C 00 04 84 0A
<< 01 03 08 01 02 03 04 05 06 07 08 65 13
Publish: /devices/modbus-sample/controls/U64: '506660481457717506' (QoS 1, retained)
EnqueueLittleEndianReadResponses()
>> 01 03 00 10 00 02 C5 CE
<< 01 03 04 05 12 48 C0 6C AA
Publish: /devices/modbus-sample/controls/FloatLE: '-3.1261' (QoS 1, retained)
EnqueueLittleEndianReadResponses()
>> 01 03 00 12 00 06 65 CD
<< 01 03 0C 00 00 6D 00 65 00 72 00 6F 00 6C 00 FD E5
Publish: /devices/modbus-sample/controls/StringLE: 'lorem' (QoS 1, retained)
EnqueueLittleEndianReadResponses()
>> 01 03 00 18 00 03 85 CC
<< 01 03 06 00 6D 75 73 70 69 82 85
Publish: /devices/modbus-sample/controls/String8LE: 'ipsum' (QoS 1, retained)
Publish: /devices/modbus-sample/controls/U8/on: '1' (QoS 0, retained)
Publish: /devices/modbus-sample/controls/U16/on: '772' (QoS 0, retained)
Publish: /devices/modbus-sample/controls/U24/on: '329223' (QoS 0, retained)
Publish: /devices/modbus-sample/controls/U32/on: '134810123' (QoS 0, retained)
Publish: /devices/modbus-sample/controls/U64/on: '868365761026069268' (QoS 0, retained)
Publish: /devices/modbus-sample/controls/FloatLE/on: '3.141500' (QoS 0, retained)
Publish: /devices/modbus-sample/controls/StringLE/on: 'dolor' (QoS 0, retained)
Publish: /devices/modbus-sample/controls/String8LE/on: 'magna' (QoS 0, retained)
EnqueueLittleEndianWriteResponses()
>> 01 06 00 01 EE 01 54 6A
<< 01 06 00 02 EE 01 A4 6A
Publish: /devices/modbus-sample/controls/U8: '1' (QoS 1, retained)
EnqueueLittleEndianWriteResponses()
>> 01 06 00 02 03 04 29 39
<< 01 06 00 01 03 04 D9 39
Publish: /devices/modbus-sample/controls/U16: '772' (QoS 1, retained)
EnqueueLittleEndianWriteResponses()
>> 01 10 00 03 00 02 04 06 07 EE 05 8F 50
<< 01 10 00 03 00 02 B1 C8
Publish: /devices/modbus-sample/controls/U24: '329223' (QoS 1, retained)
EnqueueLittleEndianWriteResponses()
>> 01 10 00 06 00 02 04 0A 0B 08 09 C6 59
<< 01 10 00 06 00 02 A1 C9
Publish: /devices/modbus-sample/controls/U32: '134810123' (QoS 1, retained)
EnqueueLittleEndianWriteResponses()
>> 01 10 00 0C 00 04 08 13 14 11 12 0E 0F 0C 0D FE 1E
<< 01 10 00 0C 00 04 01 C9
Publish: /devices/modbus-sample/controls/U64: '868365761026069268' (QoS 1, retained)
EnqueueLittleEndianWriteResponses()
>> 01 10 00 10 00 02 04 56 0E 49 40 B4 88
<< 01 10 00 10 00 02 40 0D
Publish: /devices/modbus-sample/controls/FloatLE: '3.1415' (QoS 1, retained)
EnqueueLittleEndianWriteResponses()
>> 01 10 00 12 00 05 0A 72 00 6F 00 6C 00 6F 00 64 00 C8 DB
<< 01 10 00 12 00 06 E0 0E
Publish: /devices/modbus-sample/controls/StringLE: 'dolor' (QoS 1, retained)
EnqueueLittleEndianWriteResponses()
>> 01 10 00 18 00 03 06 00 61 6E 67 61 6D 9E 7D
<< 01 10 00 18 00 03 00 0F
Publish: /devices/modbus-sample/controls/String8LE: 'magna' (QoS 1, retained)
EnqueueLittleEndianReadResponses()
>> 01 03 00 01 00 01 D5 CA
<< 01 03 02 EE 02 74 25
Publish: /devices/modbus-sample/controls/U8: '2' (QoS 1, retained)
EnqueueLittleEndianReadResponses()
>> 01 03 00 02 00 01 25 CA
<< 01 03 02 01 02 38 15
Publish: /devices/modbus-sample/controls/U16: '258' (QoS 1, retained)
EnqueueLittleEndianReadResponses()
>> 01 03 00 03 00 02 34 0B
<< 01 03 04 01 02 EE 03 57 AE
Publish: /devices/modbus-sample/controls/U24: '196866' (QoS 1, retained)
EnqueueLittleEndianReadResponses()
>> 01 03 00 06 00 02 24 0A
<< 01 03 04 01 02 03 04 5B 3C
Publish: /devices/modbus-sample/controls/U32: '50594050' (QoS 1, retained)
EnqueueLittleEndianReadResponses()
>> 01 03 00 0C 00 04 84 0A
<< 01 03 08 01 02 03 04 05 06 07 08 65 13
Publish: /devices/modbus-sample/controls/U64: '506660481457717506' (QoS 1, retained)
EnqueueLittleEndianReadResponses()
>> 01 03 00 10 00 02 C5 CE
<< 01 03 04 05 12 48 C0 6C AA
Publish: /devices/modbus-sample/controls/FloatLE: '-3.1261' (QoS 1, retained)
EnqueueLittleEndianReadResponses()
>> 01 03 00 12 00 06 65 CD
<< 01 03 0C 00 00 6D 00 65 00 72 00 6F 00 6C 00 FD E5
Publish: /devices/modbus-sample/controls/StringLE: 'lorem' (QoS 1, retained)
EnqueueLittleEndianReadResponses()
>> 01 03 00 18 00 03 85 CC
<< 01 03 06 00 6D 75 73 70 69 82 85
Publish: /devices/modbus-sample/controls/String8LE: 'ipsum' (QoS 1, retained)
Unsubscribe -- em-test: /devices/modbus-sample/controls/StringLE/on
Publish: /devices/modbus-sample/controls/StringLE/meta: '' (QoS 1, retained)
Publish: /devices/modbus-sample/controls/StringLE/meta/order: '' (QoS 1, retained)
Publish: /devices/modbus-sample/controls/StringLE/meta/readonly: '' (QoS 1, retained)
Publish: /devices/modbus-sample/controls/StringLE/meta/type: '' (QoS 1, retained)
Publish: /devices/modbus-sample/controls/StringLE: '' (QoS 1, retained)
Unsubscribe -- em-test: /devices/modbus-sample/controls/FloatLE/on
Publish: /devices/modbus-sample/controls/FloatLE/meta: '' (QoS 1, retained)
Publish: /devices/modbus-sample/controls/FloatLE/meta/order: '' (QoS 1, retained)
Publish: /devices/modbus-sample/controls/FloatLE/meta/readonly: '' (QoS 1, retained)
Publish: /devices/modbus-sample/controls/FloatLE/meta/type: '' (QoS 1, retained)
Publish: /devices/modbus-sample/controls/FloatLE: '' (QoS 1, retained)
Unsubscribe -- em-test: /devices/modbus-sample/controls/String8LE/on
Publish: /devices/modbus-sample/controls/String8LE/meta: '' (QoS 1, retained)
Publish: /devices/modbus-sample/controls/String8LE/meta/order: '' (QoS 1, retained)
Publish: /devices/modbus-sample/controls/String8LE/meta/readonly: '' (QoS 1, retained)
Publish: /devices/modbus-sample/controls/String8LE/meta/type: '' (QoS 1, retained)
Publish: /devices/modbus-sample/controls/String8LE: '' (QoS 1, retained)
Unsubscribe -- em-test: /devices/modbus-sample/controls/U64/on
Publish: /devices/modbus-sample/controls/U64/meta: '' (QoS 1, retained)
Publish: /devices/modbus-sample/controls/U64/meta/order: '' (QoS 1, retained)
Publish: /devices/modbus-sample/controls/U64/meta/readonly: '' (QoS 1, retained)
Publish: /devices/modbus-sample/controls/U64/meta/type: '' (QoS 1, retained)
Publish: /devices/modbus-sample/controls/U64: '' (QoS 1, retained)
Unsubscribe -- em-test: /devices/modbus-sample/controls/U32/on
Publish: /devices/modbus-sample/controls/U32/meta: '' (QoS 1, retained)
Publish: /devices/modbus-sample/controls/U32/meta/order: '' (QoS 1, retained)
Publish: /devices/modbus-sample/controls/U32/meta/readonly: '' (QoS 1, retained)
Publish: /devices/modbus-sample/controls/U32/meta/type: '' (QoS 1, retained)
Publish: /devices/modbus-sample/controls/U32: '' (QoS 1, retained)
Unsubscribe -- em-test: /devices/modbus-sample/controls/U24/on
Publish: /devices/modbus-sample/controls/U24/meta: '' (QoS 1, retained)
Publish: /devices/modbus-sample/controls/U24/meta/order: '' (QoS 1, retained)
Publish: /devices/modbus-sample/controls/U24/meta/readonly: '' (QoS 1, retained)
Publish: /devices/modbus-sample/controls/U24/meta/type: '' (QoS 1, retained)
Publish: /devices/modbus-sample/controls/U24: '' (QoS 1, retained)
Unsubscribe -- em-test: /devices/modbus-sample/controls/U16/on
Publish: /devices/modbus-sample/controls/U16/meta: '' (QoS 1, retained)
Publish: /devices/modbus-sample/controls/U16/meta/order: '' (QoS 1, retained)
Publish: /devices/modbus-sample/controls/U16/meta/readonly: '' (QoS 1, retained)
Publish: /devices/modbus-sample/controls/U16/meta/type: '' (QoS 1, retained)
Publish: /devices/modbus-sample/controls/U16: '' (QoS 1, retained)
Unsubscribe -- em-test: /devices/modbus-sample/controls/U8/on
Publish: /devices/modbus-sample/controls/U8/meta: '' (QoS 1, retained)
Publish: /devices/modbus-sample/controls/U8/meta/order: '' (QoS 1, retained)
Publish: /devices/modbus-sample/controls/U8/meta/readonly: '' (QoS 1, retained)
Publish: /devices/modbus-sample/controls/U8/meta/type: '' (QoS 1, retained)
Publish: /devices/modbus-sample/controls/U8: '' (QoS 1, retained)
Publish: /devices/modbus-sample/meta: '' (QoS 1, retained)
Publish: /devices/modbus-sample/meta/driver: '' (QoS 1, retained)
Publish: /devices/modbus-sample/meta/name: '' (QoS 1, retained)
stop: em-test
