SetDebug(1)
Publish: /devices/modbus-sample/meta/name: 'Modbus-sample' (QoS 0, retained)
Publish: /devices/modbus-sample/controls/Coil 0/meta/type: 'switch' (QoS 0, retained)
Publish: /devices/modbus-sample/controls/Coil 0/meta/order: '1' (QoS 0, retained)
Subscribe: /devices/modbus-sample/controls/Coil 0/on (QoS 0)
Publish: /devices/modbus-sample/controls/Coil 1/meta/type: 'switch' (QoS 0, retained)
Publish: /devices/modbus-sample/controls/Coil 1/meta/order: '2' (QoS 0, retained)
Subscribe: /devices/modbus-sample/controls/Coil 1/on (QoS 0)
Publish: /devices/modbus-sample/controls/RGB/meta/type: 'rgb' (QoS 0, retained)
Publish: /devices/modbus-sample/controls/RGB/meta/order: '3' (QoS 0, retained)
Subscribe: /devices/modbus-sample/controls/RGB/on (QoS 0)
Publish: /devices/modbus-sample/controls/White/meta/type: 'dimmer' (QoS 0, retained)
Publish: /devices/modbus-sample/controls/White/meta/max: '255' (QoS 0, retained)
Publish: /devices/modbus-sample/controls/White/meta/order: '4' (QoS 0, retained)
Subscribe: /devices/modbus-sample/controls/White/on (QoS 0)
Publish: /devices/modbus-sample/controls/RGB_All/meta/type: 'range' (QoS 0, retained)
Publish: /devices/modbus-sample/controls/RGB_All/meta/max: '100' (QoS 0, retained)
Publish: /devices/modbus-sample/controls/RGB_All/meta/order: '5' (QoS 0, retained)
Subscribe: /devices/modbus-sample/controls/RGB_All/on (QoS 0)
Publish: /devices/modbus-sample/controls/White1/meta/type: 'range' (QoS 0, retained)
Publish: /devices/modbus-sample/controls/White1/meta/max: '100' (QoS 0, retained)
Publish: /devices/modbus-sample/controls/White1/meta/order: '6' (QoS 0, retained)
Subscribe: /devices/modbus-sample/controls/White1/on (QoS 0)
Publish: /devices/modbus-sample/controls/Voltage/meta/type: 'text' (QoS 0, retained)
Publish: /devices/modbus-sample/controls/Voltage/meta/order: '7' (QoS 0, retained)
Subscribe: /devices/modbus-sample/controls/Voltage/on (QoS 0)
Publish: /devices/modbus-sample/controls/Discrete 0/meta/type: 'switch' (QoS 0, retained)
Publish: /devices/modbus-sample/controls/Discrete 0/meta/readonly: '1' (QoS 0, retained)
Publish: /devices/modbus-sample/controls/Discrete 0/meta/order: '8' (QoS 0, retained)
Subscribe: /devices/modbus-sample/controls/Discrete 0/on (QoS 0)
Publish: /devices/modbus-sample/controls/Holding S64/meta/type: 'value' (QoS 0, retained)
Publish: /devices/modbus-sample/controls/Holding S64/meta/order: '9' (QoS 0, retained)
Subscribe: /devices/modbus-sample/controls/Holding S64/on (QoS 0)
Publish: /devices/modbus-sample/controls/Input U16/meta/type: 'value' (QoS 0, retained)
Publish: /devices/modbus-sample/controls/Input U16/meta/readonly: '1' (QoS 0, retained)
Publish: /devices/modbus-sample/controls/Input U16/meta/order: '10' (QoS 0, retained)
Subscribe: /devices/modbus-sample/controls/Input U16/on (QoS 0)
Publish: /devices/modbus-sample/controls/Holding Float/meta/type: 'value' (QoS 0, retained)
Publish: /devices/modbus-sample/controls/Holding Float/meta/order: '11' (QoS 0, retained)
Subscribe: /devices/modbus-sample/controls/Holding Float/on (QoS 0)
Publish: /devices/modbus-sample/controls/Holding U16/meta/type: 'value' (QoS 0, retained)
Publish: /devices/modbus-sample/controls/Holding U16/meta/order: '12' (QoS 0, retained)
Subscribe: /devices/modbus-sample/controls/Holding U16/on (QoS 0)
Publish: /devices/modbus-sample/controls/Coil 0/on: '1' (QoS 0)
Publish: /devices/modbus-sample/controls/Coil 0: '1' (QoS 0, retained)
Publish: /devices/modbus-sample/controls/RGB/on: '10;20;30' (QoS 0)
Publish: /devices/modbus-sample/controls/RGB: '10;20;30' (QoS 0, retained)
Publish: /devices/modbus-sample/controls/Holding S64/on: '81985529216486895' (QoS 0)
Publish: /devices/modbus-sample/controls/Holding S64: '81985529216486895' (QoS 0, retained)
Publish: /devices/modbus-sample/controls/Holding U16/on: '3905' (QoS 0)
Publish: /devices/modbus-sample/controls/Holding U16: '3905' (QoS 0, retained)
>>> LoopOnce()
Open()
Sleep(100000)
EnqueueCoilWriteResponse()
>> 01 05 00 00 FF 00 8C 3A
Publish: /devices/modbus-sample/controls/Coil 0/meta/error: '' (QoS 0, retained)
<< 01 05 00 00 FF 00 8C 3A
EnqueueRGBWriteResponse()
>> 01 06 00 04 00 0A 48 0C
Publish: /devices/modbus-sample/controls/RGB/meta/error: '' (QoS 0, retained)
<< 01 06 00 04 00 0A 48 0C
EnqueueRGBWriteResponse()
>> 01 06 00 05 00 14 99 C4
<< 01 06 00 05 00 14 99 C4
EnqueueRGBWriteResponse()
>> 01 06 00 06 00 1E E9 C3
<< 01 06 00 06 00 1E E9 C3
EnqueueHoldingWriteS64Response()
>> 01 10 00 1E 00 04 08 01 23 45 67 89 AB CD EF 38 A1
Publish: /devices/modbus-sample/controls/Holding S64/meta/error: '' (QoS 0, retained)
<< 01 10 00 1E 00 04 A1 CC
EnqueueHoldingWriteU16Response()
>> 01 06 00 46 0F 41 AD DF
Publish: /devices/modbus-sample/controls/Holding U16/meta/error: '' (QoS 0, retained)
<< 01 06 00 46 0F 41 AD DF
EnqueueHoldingPackReadResponse()
>> 01 03 00 04 00 06 84 09
Publish: /devices/modbus-sample/controls/RGB: '10;20;30' (QoS 0, retained)
Publish: /devices/modbus-sample/controls/White/meta/error: '' (QoS 0, retained)
Publish: /devices/modbus-sample/controls/White: '1' (QoS 0, retained)
Publish: /devices/modbus-sample/controls/RGB_All/meta/error: '' (QoS 0, retained)
Publish: /devices/modbus-sample/controls/RGB_All: '2' (QoS 0, retained)
Publish: /devices/modbus-sample/controls/White1/meta/error: '' (QoS 0, retained)
Publish: /devices/modbus-sample/controls/White1: '3' (QoS 0, retained)
<< 01 03 0C 00 0A 00 14 00 1E 00 01 00 02 00 03 6F A8
EnqueueHoldingPackReadResponse()
>> 01 03 00 12 00 01 24 0F
Publish: /devices/modbus-sample/controls/Voltage/meta/error: '' (QoS 0, retained)
Publish: /devices/modbus-sample/controls/Voltage: '4' (QoS 0, retained)
<< 01 03 02 00 04 B9 87
EnqueueHoldingReadS64Response()
>> 01 03 00 1E 00 04 24 0F
Publish: /devices/modbus-sample/controls/Holding S64: '72623859790382856' (QoS 0, retained)
<< 01 03 08 01 02 03 04 05 06 07 08 65 13
EnqueueHoldingReadF32Response()
>> 01 03 00 32 00 02 65 C4
Publish: /devices/modbus-sample/controls/Holding Float/meta/error: '' (QoS 0, retained)
Publish: /devices/modbus-sample/controls/Holding Float: '2.942727e-44' (QoS 0, retained)
<< 01 03 04 00 00 00 15 3B FC
EnqueueHoldingReadU16Response()
>> 01 03 00 46 00 01 65 DF
Publish: /devices/modbus-sample/controls/Holding U16: '21' (QoS 0, retained)
<< 01 03 02 00 15 79 8B
EnqueueInputReadU16Response()
>> 01 04 00 28 00 01 B1 C2
Publish: /devices/modbus-sample/controls/Input U16/meta/error: '' (QoS 0, retained)
Publish: /devices/modbus-sample/controls/Input U16: '102' (QoS 0, retained)
<< 01 04 02 00 66 39 1A
EnqueueCoilReadResponse()
>> 01 01 00 00 00 02 BD CB
Publish: /devices/modbus-sample/controls/Coil 0: '0' (QoS 0, retained)
Publish: /devices/modbus-sample/controls/Coil 1/meta/error: '' (QoS 0, retained)
Publish: /devices/modbus-sample/controls/Coil 1: '1' (QoS 0, retained)
<< 01 01 01 02 D0 49
EnqueueDiscreteReadResponse()
>> 01 02 00 14 00 01 F9 CE
Publish: /devices/modbus-sample/controls/Discrete 0/meta/error: '' (QoS 0, retained)
Publish: /devices/modbus-sample/controls/Discrete 0: '1' (QoS 0, retained)
<< 01 02 01 01 60 48
Close()
