SetDebug(1)
Publish: /devices/modbus-sample/meta/name: 'Modbus-sample' (QoS 0, retained)
Publish: /devices/modbus-sample/controls/Coil 0/meta/type: 'switch' (QoS 0, retained)
Publish: /devices/modbus-sample/controls/Coil 0/meta/order: '1' (QoS 0, retained)
Subscribe: /devices/modbus-sample/controls/Coil 0/on (QoS 0)
Publish: /devices/modbus-sample/controls/Coil 1/meta/type: 'switch' (QoS 0, retained)
Publish: /devices/modbus-sample/controls/Coil 1/meta/order: '2' (QoS 0, retained)
Subscribe: /devices/modbus-sample/controls/Coil 1/on (QoS 0)
Publish: /devices/modbus-sample/controls/RGB/meta/type: 'rgb' (QoS 0, retained)
Publish: /devices/modbus-sample/controls/RGB/meta/order: '3' (QoS 0, retained)
Subscribe: /devices/modbus-sample/controls/RGB/on (QoS 0)
Publish: /devices/modbus-sample/controls/White/meta/type: 'dimmer' (QoS 0, retained)
Publish: /devices/modbus-sample/controls/White/meta/max: '255' (QoS 0, retained)
Publish: /devices/modbus-sample/controls/White/meta/order: '4' (QoS 0, retained)
Subscribe: /devices/modbus-sample/controls/White/on (QoS 0)
Publish: /devices/modbus-sample/controls/RGB_All/meta/type: 'range' (QoS 0, retained)
Publish: /devices/modbus-sample/controls/RGB_All/meta/max: '100' (QoS 0, retained)
Publish: /devices/modbus-sample/controls/RGB_All/meta/order: '5' (QoS 0, retained)
Subscribe: /devices/modbus-sample/controls/RGB_All/on (QoS 0)
Publish: /devices/modbus-sample/controls/White1/meta/type: 'range' (QoS 0, retained)
Publish: /devices/modbus-sample/controls/White1/meta/max: '100' (QoS 0, retained)
Publish: /devices/modbus-sample/controls/White1/meta/order: '6' (QoS 0, retained)
Subscribe: /devices/modbus-sample/controls/White1/on (QoS 0)
Publish: /devices/modbus-sample/controls/Voltage/meta/type: 'text' (QoS 0, retained)
Publish: /devices/modbus-sample/controls/Voltage/meta/order: '7' (QoS 0, retained)
Subscribe: /devices/modbus-sample/controls/Voltage/on (QoS 0)
Publish: /devices/modbus-sample/controls/Discrete 0/meta/type: 'switch' (QoS 0, retained)
Publish: /devices/modbus-sample/controls/Discrete 0/meta/readonly: '1' (QoS 0, retained)
Publish: /devices/modbus-sample/controls/Discrete 0/meta/order: '8' (QoS 0, retained)
Subscribe: /devices/modbus-sample/controls/Discrete 0/on (QoS 0)
Publish: /devices/modbus-sample/controls/Holding S64/meta/type: 'value' (QoS 0, retained)
Publish: /devices/modbus-sample/controls/Holding S64/meta/order: '9' (QoS 0, retained)
Subscribe: /devices/modbus-sample/controls/Holding S64/on (QoS 0)
Publish: /devices/modbus-sample/controls/Input U16/meta/type: 'value' (QoS 0, retained)
Publish: /devices/modbus-sample/controls/Input U16/meta/readonly: '1' (QoS 0, retained)
Publish: /devices/modbus-sample/controls/Input U16/meta/order: '10' (QoS 0, retained)
Subscribe: /devices/modbus-sample/controls/Input U16/on (QoS 0)
Publish: /devices/modbus-sample/controls/Holding Float/meta/type: 'value' (QoS 0, retained)
Publish: /devices/modbus-sample/controls/Holding Float/meta/order: '11' (QoS 0, retained)
Subscribe: /devices/modbus-sample/controls/Holding Float/on (QoS 0)
Publish: /devices/modbus-sample/controls/Holding U16/meta/type: 'value' (QoS 0, retained)
Publish: /devices/modbus-sample/controls/Holding U16/meta/order: '12' (QoS 0, retained)
Subscribe: /devices/modbus-sample/controls/Holding U16/on (QoS 0)
Publish: /devices/modbus-sample/controls/Coil 2/meta/type: 'switch' (QoS 0, retained)
Publish: /devices/modbus-sample/controls/Coil 2/meta/order: '13' (QoS 0, retained)
Subscribe: /devices/modbus-sample/controls/Coil 2/on (QoS 0)
Publish: /devices/modbus-sample/controls/Coil 3/meta/type: 'switch' (QoS 0, retained)
Publish: /devices/modbus-sample/controls/Coil 3/meta/order: '14' (QoS 0, retained)
Subscribe: /devices/modbus-sample/controls/Coil 3/on (QoS 0)
Publish: /devices/modbus-sample/controls/Coil 4/meta/type: 'switch' (QoS 0, retained)
Publish: /devices/modbus-sample/controls/Coil 4/meta/order: '15' (QoS 0, retained)
Subscribe: /devices/modbus-sample/controls/Coil 4/on (QoS 0)
Publish: /devices/modbus-sample/controls/Coil 5/meta/type: 'switch' (QoS 0, retained)
Publish: /devices/modbus-sample/controls/Coil 5/meta/order: '16' (QoS 0, retained)
Subscribe: /devices/modbus-sample/controls/Coil 5/on (QoS 0)
Publish: /devices/modbus-sample/controls/Coil 6/meta/type: 'switch' (QoS 0, retained)
Publish: /devices/modbus-sample/controls/Coil 6/meta/order: '17' (QoS 0, retained)
Subscribe: /devices/modbus-sample/controls/Coil 6/on (QoS 0)
Publish: /devices/modbus-sample/controls/Coil 7/meta/type: 'switch' (QoS 0, retained)
Publish: /devices/modbus-sample/controls/Coil 7/meta/order: '18' (QoS 0, retained)
Subscribe: /devices/modbus-sample/controls/Coil 7/on (QoS 0)
Publish: /devices/modbus-sample/controls/Coil 8/meta/type: 'switch' (QoS 0, retained)
Publish: /devices/modbus-sample/controls/Coil 8/meta/order: '19' (QoS 0, retained)
Subscribe: /devices/modbus-sample/controls/Coil 8/on (QoS 0)
Publish: /devices/modbus-sample/controls/Coil 9/meta/type: 'switch' (QoS 0, retained)
Publish: /devices/modbus-sample/controls/Coil 9/meta/order: '20' (QoS 0, retained)
Subscribe: /devices/modbus-sample/controls/Coil 9/on (QoS 0)
Publish: /devices/modbus-sample/controls/Coil 10/meta/type: 'switch' (QoS 0, retained)
Publish: /devices/modbus-sample/controls/Coil 10/meta/order: '21' (QoS 0, retained)
Subscribe: /devices/modbus-sample/controls/Coil 10/on (QoS 0)
Publish: /devices/modbus-sample/controls/Coil 11/meta/type: 'switch' (QoS 0, retained)
Publish: /devices/modbus-sample/controls/Coil 11/meta/order: '22' (QoS 0, retained)
Subscribe: /devices/modbus-sample/controls/Coil 11/on (QoS 0)
Publish: /devices/modbus-sample/controls/Coil 0/on: '1' (QoS 0)
Publish: /devices/modbus-sample/controls/Coil 0: '1' (QoS 0, retained)
Publish: /devices/modbus-sample/controls/Holding U16/on: '3905' (QoS 0)
Publish: /devices/modbus-sample/controls/Holding U16: '3905' (QoS 0, retained)
>>> LoopOnce()
Open()
Sleep(100000)
EnqueueCoilWriteResponse()
>> 01 05 00 00 FF 00 8C 3A
Publish: /devices/modbus-sample/controls/Coil 0/meta/error: 'w' (QoS 0, retained)
<< 01 85 01 83 50
EnqueueHoldingWriteU16Response()
>> 01 06 00 46 0F 41 AD DF
Publish: /devices/modbus-sample/controls/Holding U16/meta/error: 'w' (QoS 0, retained)
<< 01 86 02 C3 A1
EnqueueHoldingPackReadResponse()
>> 01 03 00 04 00 06 84 09
Publish: /devices/modbus-sample/controls/RGB/meta/error: 'r' (QoS 0, retained)
Publish: /devices/modbus-sample/controls/White/meta/error: 'r' (QoS 0, retained)
Publish: /devices/modbus-sample/controls/RGB_All/meta/error: 'r' (QoS 0, retained)
Publish: /devices/modbus-sample/controls/White1/meta/error: 'r' (QoS 0, retained)
<< 01 83 03 01 31
EnqueueHoldingPackReadResponse()
>> 01 03 00 12 00 01 24 0F
Publish: /devices/modbus-sample/controls/Voltage/meta/error: 'r' (QoS 0, retained)
<< 01 83 03 01 31
EnqueueHoldingReadS64Response()
>> 01 03 00 1E 00 04 24 0F
Publish: /devices/modbus-sample/controls/Holding S64/meta/error: 'r' (QoS 0, retained)
<< 01 83 04 40 F3
EnqueueHoldingReadF32Response()
>> 01 03 00 32 00 02 65 C4
Publish: /devices/modbus-sample/controls/Holding Float/meta/error: 'r' (QoS 0, retained)
<< 01 83 05 81 33
EnqueueHoldingReadU16Response()
>> 01 03 00 46 00 01 65 DF
Publish: /devices/modbus-sample/controls/Holding U16/meta/error: 'rw' (QoS 0, retained)
<< 01 83 06 C1 32
EnqueueInputReadU16Response()
>> 01 04 00 28 00 01 B1 C2
Publish: /devices/modbus-sample/controls/Input U16/meta/error: 'r' (QoS 0, retained)
<< 01 84 08 42 C6
EnqueueCoilReadResponse()
>> 01 01 00 00 00 02 BD CB
Publish: /devices/modbus-sample/controls/Coil 0/meta/error: 'rw' (QoS 0, retained)
Publish: /devices/modbus-sample/controls/Coil 1/meta/error: 'r' (QoS 0, retained)
<< 01 81 0A C0 57
Enqueue10CoilsReadResponse()
>> 01 01 00 48 00 0A 3C 1B
Publish: /devices/modbus-sample/controls/Coil 2/meta/error: 'r' (QoS 0, retained)
Publish: /devices/modbus-sample/controls/Coil 3/meta/error: 'r' (QoS 0, retained)
Publish: /devices/modbus-sample/controls/Coil 4/meta/error: 'r' (QoS 0, retained)
Publish: /devices/modbus-sample/controls/Coil 5/meta/error: 'r' (QoS 0, retained)
Publish: /devices/modbus-sample/controls/Coil 6/meta/error: 'r' (QoS 0, retained)
Publish: /devices/modbus-sample/controls/Coil 7/meta/error: 'r' (QoS 0, retained)
Publish: /devices/modbus-sample/controls/Coil 8/meta/error: 'r' (QoS 0, retained)
Publish: /devices/modbus-sample/controls/Coil 9/meta/error: 'r' (QoS 0, retained)
Publish: /devices/modbus-sample/controls/Coil 10/meta/error: 'r' (QoS 0, retained)
Publish: /devices/modbus-sample/controls/Coil 11/meta/error: 'r' (QoS 0, retained)
<< 01 81 54 41 AF
EnqueueDiscreteReadResponse()
>> 01 02 00 14 00 01 F9 CE
Publish: /devices/modbus-sample/controls/Discrete 0/meta/error: 'r' (QoS 0, retained)
Port cycle OK
<< 01 82 0B 01 67
Close()
