Subscribe: /devices/+/meta/driver (QoS 0)
Publish: /devices/modbus-sample/meta: '{"driver":"em-test","title":{"en":"Modbus-sample"}}' (QoS 1, retained)
Publish: /devices/modbus-sample/meta/driver: 'em-test' (QoS 1, retained)
Publish: /devices/modbus-sample/meta/error: '' (QoS 1, retained)
Publish: /devices/modbus-sample/meta/name: 'Modbus-sample' (QoS 1, retained)
Publish: /devices/modbus-sample/controls/Ch 1/meta: '{"order":1,"readonly":false,"type":"value"}' (QoS 1, retained)
Publish: /devices/modbus-sample/controls/Ch 1/meta/error: '' (QoS 1, retained)
Publish: /devices/modbus-sample/controls/Ch 1/meta/order: '1' (QoS 1, retained)
Publish: /devices/modbus-sample/controls/Ch 1/meta/readonly: '0' (QoS 1, retained)
Publish: /devices/modbus-sample/controls/Ch 1/meta/type: 'value' (QoS 1, retained)
Publish: /devices/modbus-sample/controls/Ch 1: '0' (QoS 1, retained)
Subscribe: /devices/modbus-sample/controls/Ch 1/on (QoS 0)
Subscribe: /devices/modbus-sample/controls/# (QoS 0)
(retain) -> /devices/modbus-sample/controls/Ch 1: '0' (QoS 1, retained)
(retain) -> /devices/modbus-sample/controls/Ch 1/meta: '{"order":1,"readonly":false,"type":"value"}' (QoS 1, retained)
(retain) -> /devices/modbus-sample/controls/Ch 1/meta/order: '1' (QoS 1, retained)
(retain) -> /devices/modbus-sample/controls/Ch 1/meta/readonly: '0' (QoS 1, retained)
(retain) -> /devices/modbus-sample/controls/Ch 1/meta/type: 'value' (QoS 1, retained)
Unsubscribe -- em-test: /devices/modbus-sample/controls/#
Open()
Sleep(5000)
EnqueuePartialWriteReadCacheDataResponse()
>> 01 03 00 0A 00 02 E4 09
<< 01 03 04 AA BB CC DD 3E 97
EnqueuePartialWriteReadCacheDataResponse()
>> 01 03 00 14 00 01 C4 0E
<< 01 03 02 EE FF B5 A4
EnqueuePartialWriteResponse()
>> 01 06 00 0A AA B9 16 DA
<< 01 06 00 0A AA B9 16 DA
EnqueuePartialWriteResponse()
>> 01 06 00 0A AA 91 16 C4
<< 01 06 00 0A AA 91 16 C4
EnqueuePartialWriteResponse()
>> 01 06 00 0B 8C DD 5C 91
<< 01 06 00 0B 8C DD 5C 91
EnqueuePartialWriteResponse()
>> 01 06 00 14 EE AF C4 12
<< 01 06 00 14 EE AF C4 12
EnqueuePartialWriteResponse()
>> 01 06 00 14 EB AF C7 42
<< 01 06 00 14 EB AF C7 42
EnqueueSimpleChannelReadResponse()
>> 01 03 00 21 00 01 D4 00
<< 01 03 02 AB CD 06 E1
Publish: /devices/modbus-sample/controls/Ch 1: '43981' (QoS 1, retained)
Unsubscribe -- em-test: /devices/modbus-sample/controls/Ch 1/on
Publish: /devices/modbus-sample/controls/Ch 1/meta: '' (QoS 1, retained)
Publish: /devices/modbus-sample/controls/Ch 1/meta/order: '' (QoS 1, retained)
Publish: /devices/modbus-sample/controls/Ch 1/meta/readonly: '' (QoS 1, retained)
Publish: /devices/modbus-sample/controls/Ch 1/meta/type: '' (QoS 1, retained)
Publish: /devices/modbus-sample/controls/Ch 1: '' (QoS 1, retained)
Publish: /devices/modbus-sample/meta: '' (QoS 1, retained)
Publish: /devices/modbus-sample/meta/driver: '' (QoS 1, retained)
Publish: /devices/modbus-sample/meta/name: '' (QoS 1, retained)
stop: em-test
